VIN	V(vin)	V(vout)
Step Information: Wn=1µ Wp_ratio=1.5  (Step: 1/14)
0.000000000000000e+00	0.000000e+00	1.200000e+00
1.000000000000000e-02	1.000000e-02	1.200000e+00
2.000000000000000e-02	2.000000e-02	1.200000e+00
3.000000000000000e-02	3.000000e-02	1.200000e+00
4.000000000000000e-02	4.000000e-02	1.200000e+00
5.000000000000000e-02	5.000000e-02	1.200000e+00
6.000000000000000e-02	6.000000e-02	1.200000e+00
7.000000000000001e-02	7.000000e-02	1.200000e+00
8.000000000000000e-02	8.000000e-02	1.200000e+00
9.000000000000000e-02	9.000000e-02	1.200000e+00
1.000000000000000e-01	1.000000e-01	1.200000e+00
1.100000000000000e-01	1.100000e-01	1.200000e+00
1.200000000000000e-01	1.200000e-01	1.200000e+00
1.300000000000000e-01	1.300000e-01	1.200000e+00
1.400000000000000e-01	1.400000e-01	1.200000e+00
1.500000000000000e-01	1.500000e-01	1.200000e+00
1.600000000000000e-01	1.600000e-01	1.200000e+00
1.700000000000000e-01	1.700000e-01	1.200000e+00
1.800000000000000e-01	1.800000e-01	1.200000e+00
1.900000000000000e-01	1.900000e-01	1.200000e+00
2.000000000000000e-01	2.000000e-01	1.200000e+00
2.100000000000000e-01	2.100000e-01	1.200000e+00
2.200000000000000e-01	2.200000e-01	1.200000e+00
2.300000000000000e-01	2.300000e-01	1.200000e+00
2.400000000000000e-01	2.400000e-01	1.200000e+00
2.500000000000000e-01	2.500000e-01	1.200000e+00
2.600000000000000e-01	2.600000e-01	1.200000e+00
2.700000000000000e-01	2.700000e-01	1.200000e+00
2.800000000000000e-01	2.800000e-01	1.200000e+00
2.900000000000000e-01	2.900000e-01	1.200000e+00
3.000000000000000e-01	3.000000e-01	1.200000e+00
3.100000000000000e-01	3.100000e-01	1.200000e+00
3.200000000000000e-01	3.200000e-01	1.200000e+00
3.300000000000000e-01	3.300000e-01	1.200000e+00
3.400000000000000e-01	3.400000e-01	1.200000e+00
3.500000000000000e-01	3.500000e-01	1.200000e+00
3.600000000000000e-01	3.600000e-01	1.200000e+00
3.700000000000000e-01	3.700000e-01	1.200000e+00
3.800000000000000e-01	3.800000e-01	1.200000e+00
3.900000000000000e-01	3.900000e-01	1.200000e+00
4.000000000000000e-01	4.000000e-01	1.200000e+00
4.100000000000000e-01	4.100000e-01	1.199737e+00
4.200000000000000e-01	4.200000e-01	1.198921e+00
4.300000000000000e-01	4.300000e-01	1.197501e+00
4.400000000000000e-01	4.400000e-01	1.195421e+00
4.500000000000000e-01	4.500000e-01	1.192611e+00
4.600000000000000e-01	4.600000e-01	1.188985e+00
4.700000000000000e-01	4.700000e-01	1.184439e+00
4.800000000000000e-01	4.800000e-01	1.178839e+00
4.900000000000000e-01	4.900000e-01	1.172012e+00
5.000000000000000e-01	5.000000e-01	1.163726e+00
5.100000000000000e-01	5.100000e-01	1.153655e+00
5.200000000000000e-01	5.200000e-01	1.141319e+00
5.300000000000000e-01	5.300000e-01	1.125957e+00
5.400000000000000e-01	5.400000e-01	1.106213e+00
5.500000000000000e-01	5.500000e-01	1.079198e+00
5.600000000000001e-01	5.600000e-01	1.034273e+00
5.700000000000001e-01	5.700000e-01	1.258457e-01
5.800000000000000e-01	5.800000e-01	9.219711e-02
5.900000000000000e-01	5.900000e-01	7.343697e-02
6.000000000000000e-01	6.000000e-01	6.011213e-02
6.100000000000000e-01	6.100000e-01	4.980573e-02
6.200000000000000e-01	6.200000e-01	4.155499e-02
6.300000000000000e-01	6.300000e-01	3.474233e-02
6.400000000000000e-01	6.400000e-01	2.902838e-02
6.500000000000000e-01	6.500000e-01	2.418645e-02
6.600000000000000e-01	6.600000e-01	2.005574e-02
6.700000000000000e-01	6.700000e-01	1.651787e-02
6.800000000000000e-01	6.800000e-01	1.348288e-02
6.900000000000001e-01	6.900000e-01	1.088059e-02
7.000000000000001e-01	7.000000e-01	8.655036e-03
7.100000000000000e-01	7.100000e-01	6.760799e-03
7.200000000000000e-01	7.200000e-01	5.160438e-03
7.300000000000000e-01	7.300000e-01	3.822681e-03
7.400000000000000e-01	7.400000e-01	2.721110e-03
7.500000000000000e-01	7.500000e-01	1.833181e-03
7.600000000000000e-01	7.600000e-01	1.139484e-03
7.700000000000000e-01	7.700000e-01	6.231754e-04
7.800000000000000e-01	7.800000e-01	2.695371e-04
7.900000000000000e-01	7.900000e-01	6.562222e-05
8.000000000000000e-01	8.000000e-01	-1.954674e-08
8.100000000000001e-01	8.100000e-01	-7.243265e-10
8.200000000000001e-01	8.200000e-01	4.509621e-09
8.300000000000001e-01	8.300000e-01	4.404746e-09
8.400000000000000e-01	8.400000e-01	4.304638e-09
8.500000000000000e-01	8.500000e-01	4.208979e-09
8.600000000000000e-01	8.600000e-01	4.117480e-09
8.700000000000000e-01	8.700000e-01	4.029874e-09
8.800000000000000e-01	8.800000e-01	3.945918e-09
8.900000000000000e-01	8.900000e-01	3.865389e-09
9.000000000000000e-01	9.000000e-01	3.788081e-09
9.100000000000000e-01	9.100000e-01	3.713805e-09
9.200000000000000e-01	9.200000e-01	3.642386e-09
9.300000000000000e-01	9.300000e-01	3.573662e-09
9.400000000000001e-01	9.400000e-01	3.507483e-09
9.500000000000001e-01	9.500000e-01	3.443711e-09
9.600000000000000e-01	9.600000e-01	3.382216e-09
9.700000000000000e-01	9.700000e-01	3.322879e-09
9.800000000000000e-01	9.800000e-01	3.265588e-09
9.900000000000000e-01	9.900000e-01	3.210239e-09
1.000000000000000e+00	1.000000e+00	3.156735e-09
1.010000000000000e+00	1.010000e+00	3.104985e-09
1.020000000000000e+00	1.020000e+00	3.054905e-09
1.030000000000000e+00	1.030000e+00	3.006414e-09
1.040000000000000e+00	1.040000e+00	2.959439e-09
1.050000000000000e+00	1.050000e+00	2.913909e-09
1.060000000000000e+00	1.060000e+00	2.869759e-09
1.070000000000000e+00	1.070000e+00	2.826926e-09
1.080000000000000e+00	1.080000e+00	2.785354e-09
1.090000000000000e+00	1.090000e+00	2.744987e-09
1.100000000000000e+00	1.100000e+00	2.705772e-09
1.110000000000000e+00	1.110000e+00	2.667663e-09
1.120000000000000e+00	1.120000e+00	2.630612e-09
1.130000000000000e+00	1.130000e+00	2.594577e-09
1.140000000000000e+00	1.140000e+00	2.559515e-09
1.150000000000000e+00	1.150000e+00	2.525388e-09
1.160000000000000e+00	1.160000e+00	2.492159e-09
1.170000000000000e+00	1.170000e+00	2.459793e-09
1.180000000000000e+00	1.180000e+00	2.428257e-09
1.190000000000000e+00	1.190000e+00	2.397520e-09
1.200000000000000e+00	1.200000e+00	2.367551e-09
Step Information: Wn=2µ Wp_ratio=1.5  (Step: 2/14)
0.000000000000000e+00	0.000000e+00	1.200000e+00
1.000000000000000e-02	1.000000e-02	1.200000e+00
2.000000000000000e-02	2.000000e-02	1.200000e+00
3.000000000000000e-02	3.000000e-02	1.200000e+00
4.000000000000000e-02	4.000000e-02	1.200000e+00
5.000000000000000e-02	5.000000e-02	1.200000e+00
6.000000000000000e-02	6.000000e-02	1.200000e+00
7.000000000000001e-02	7.000000e-02	1.200000e+00
8.000000000000000e-02	8.000000e-02	1.200000e+00
9.000000000000000e-02	9.000000e-02	1.200000e+00
1.000000000000000e-01	1.000000e-01	1.200000e+00
1.100000000000000e-01	1.100000e-01	1.200000e+00
1.200000000000000e-01	1.200000e-01	1.200000e+00
1.300000000000000e-01	1.300000e-01	1.200000e+00
1.400000000000000e-01	1.400000e-01	1.200000e+00
1.500000000000000e-01	1.500000e-01	1.200000e+00
1.600000000000000e-01	1.600000e-01	1.200000e+00
1.700000000000000e-01	1.700000e-01	1.200000e+00
1.800000000000000e-01	1.800000e-01	1.200000e+00
1.900000000000000e-01	1.900000e-01	1.200000e+00
2.000000000000000e-01	2.000000e-01	1.200000e+00
2.100000000000000e-01	2.100000e-01	1.200000e+00
2.200000000000000e-01	2.200000e-01	1.200000e+00
2.300000000000000e-01	2.300000e-01	1.200000e+00
2.400000000000000e-01	2.400000e-01	1.200000e+00
2.500000000000000e-01	2.500000e-01	1.200000e+00
2.600000000000000e-01	2.600000e-01	1.200000e+00
2.700000000000000e-01	2.700000e-01	1.200000e+00
2.800000000000000e-01	2.800000e-01	1.200000e+00
2.900000000000000e-01	2.900000e-01	1.200000e+00
3.000000000000000e-01	3.000000e-01	1.200000e+00
3.100000000000000e-01	3.100000e-01	1.200000e+00
3.200000000000000e-01	3.200000e-01	1.200000e+00
3.300000000000000e-01	3.300000e-01	1.200000e+00
3.400000000000000e-01	3.400000e-01	1.200000e+00
3.500000000000000e-01	3.500000e-01	1.200000e+00
3.600000000000000e-01	3.600000e-01	1.200000e+00
3.700000000000000e-01	3.700000e-01	1.200000e+00
3.800000000000000e-01	3.800000e-01	1.200000e+00
3.900000000000000e-01	3.900000e-01	1.200000e+00
4.000000000000000e-01	4.000000e-01	1.200000e+00
4.100000000000000e-01	4.100000e-01	1.199737e+00
4.200000000000000e-01	4.200000e-01	1.198921e+00
4.300000000000000e-01	4.300000e-01	1.197501e+00
4.400000000000000e-01	4.400000e-01	1.195421e+00
4.500000000000000e-01	4.500000e-01	1.192611e+00
4.600000000000000e-01	4.600000e-01	1.188985e+00
4.700000000000000e-01	4.700000e-01	1.184439e+00
4.800000000000000e-01	4.800000e-01	1.178839e+00
4.900000000000000e-01	4.900000e-01	1.172012e+00
5.000000000000000e-01	5.000000e-01	1.163726e+00
5.100000000000000e-01	5.100000e-01	1.153655e+00
5.200000000000000e-01	5.200000e-01	1.141319e+00
5.300000000000000e-01	5.300000e-01	1.125957e+00
5.400000000000000e-01	5.400000e-01	1.106213e+00
5.500000000000000e-01	5.500000e-01	1.079198e+00
5.600000000000001e-01	5.600000e-01	1.034273e+00
5.700000000000001e-01	5.700000e-01	1.258457e-01
5.800000000000000e-01	5.800000e-01	9.219710e-02
5.900000000000000e-01	5.900000e-01	7.343696e-02
6.000000000000000e-01	6.000000e-01	6.011213e-02
6.100000000000000e-01	6.100000e-01	4.980573e-02
6.200000000000000e-01	6.200000e-01	4.155499e-02
6.300000000000000e-01	6.300000e-01	3.474233e-02
6.400000000000000e-01	6.400000e-01	2.902837e-02
6.500000000000000e-01	6.500000e-01	2.418645e-02
6.600000000000000e-01	6.600000e-01	2.005573e-02
6.700000000000000e-01	6.700000e-01	1.651786e-02
6.800000000000000e-01	6.800000e-01	1.348288e-02
6.900000000000001e-01	6.900000e-01	1.088059e-02
7.000000000000001e-01	7.000000e-01	8.655033e-03
7.100000000000000e-01	7.100000e-01	6.760796e-03
7.200000000000000e-01	7.200000e-01	5.160435e-03
7.300000000000000e-01	7.300000e-01	3.822678e-03
7.400000000000000e-01	7.400000e-01	2.721107e-03
7.500000000000000e-01	7.500000e-01	1.833178e-03
7.600000000000000e-01	7.600000e-01	1.139481e-03
7.700000000000000e-01	7.700000e-01	6.231728e-04
7.800000000000000e-01	7.800000e-01	2.695346e-04
7.900000000000000e-01	7.900000e-01	6.561979e-05
8.000000000000000e-01	8.000000e-01	-2.191429e-08
8.100000000000001e-01	8.100000e-01	-3.034132e-09
8.200000000000001e-01	8.200000e-01	2.254810e-09
8.300000000000001e-01	8.300000e-01	2.202373e-09
8.400000000000000e-01	8.400000e-01	2.152319e-09
8.500000000000000e-01	8.500000e-01	2.104490e-09
8.600000000000000e-01	8.600000e-01	2.058740e-09
8.700000000000000e-01	8.700000e-01	2.014937e-09
8.800000000000000e-01	8.800000e-01	1.972959e-09
8.900000000000000e-01	8.900000e-01	1.932695e-09
9.000000000000000e-01	9.000000e-01	1.894041e-09
9.100000000000000e-01	9.100000e-01	1.856903e-09
9.200000000000000e-01	9.200000e-01	1.821193e-09
9.300000000000000e-01	9.300000e-01	1.786831e-09
9.400000000000001e-01	9.400000e-01	1.753741e-09
9.500000000000001e-01	9.500000e-01	1.721855e-09
9.600000000000000e-01	9.600000e-01	1.691108e-09
9.700000000000000e-01	9.700000e-01	1.661439e-09
9.800000000000000e-01	9.800000e-01	1.632794e-09
9.900000000000000e-01	9.900000e-01	1.605119e-09
1.000000000000000e+00	1.000000e+00	1.578367e-09
1.010000000000000e+00	1.010000e+00	1.552492e-09
1.020000000000000e+00	1.020000e+00	1.527452e-09
1.030000000000000e+00	1.030000e+00	1.503207e-09
1.040000000000000e+00	1.040000e+00	1.479719e-09
1.050000000000000e+00	1.050000e+00	1.456954e-09
1.060000000000000e+00	1.060000e+00	1.434879e-09
1.070000000000000e+00	1.070000e+00	1.413463e-09
1.080000000000000e+00	1.080000e+00	1.392677e-09
1.090000000000000e+00	1.090000e+00	1.372493e-09
1.100000000000000e+00	1.100000e+00	1.352886e-09
1.110000000000000e+00	1.110000e+00	1.333832e-09
1.120000000000000e+00	1.120000e+00	1.315306e-09
1.130000000000000e+00	1.130000e+00	1.297288e-09
1.140000000000000e+00	1.140000e+00	1.279757e-09
1.150000000000000e+00	1.150000e+00	1.262694e-09
1.160000000000000e+00	1.160000e+00	1.246079e-09
1.170000000000000e+00	1.170000e+00	1.229897e-09
1.180000000000000e+00	1.180000e+00	1.214129e-09
1.190000000000000e+00	1.190000e+00	1.198760e-09
1.200000000000000e+00	1.200000e+00	1.183776e-09
Step Information: Wn=1µ Wp_ratio=1.75  (Step: 3/14)
0.000000000000000e+00	0.000000e+00	1.200000e+00
1.000000000000000e-02	1.000000e-02	1.200000e+00
2.000000000000000e-02	2.000000e-02	1.200000e+00
3.000000000000000e-02	3.000000e-02	1.200000e+00
4.000000000000000e-02	4.000000e-02	1.200000e+00
5.000000000000000e-02	5.000000e-02	1.200000e+00
6.000000000000000e-02	6.000000e-02	1.200000e+00
7.000000000000001e-02	7.000000e-02	1.200000e+00
8.000000000000000e-02	8.000000e-02	1.200000e+00
9.000000000000000e-02	9.000000e-02	1.200000e+00
1.000000000000000e-01	1.000000e-01	1.200000e+00
1.100000000000000e-01	1.100000e-01	1.200000e+00
1.200000000000000e-01	1.200000e-01	1.200000e+00
1.300000000000000e-01	1.300000e-01	1.200000e+00
1.400000000000000e-01	1.400000e-01	1.200000e+00
1.500000000000000e-01	1.500000e-01	1.200000e+00
1.600000000000000e-01	1.600000e-01	1.200000e+00
1.700000000000000e-01	1.700000e-01	1.200000e+00
1.800000000000000e-01	1.800000e-01	1.200000e+00
1.900000000000000e-01	1.900000e-01	1.200000e+00
2.000000000000000e-01	2.000000e-01	1.200000e+00
2.100000000000000e-01	2.100000e-01	1.200000e+00
2.200000000000000e-01	2.200000e-01	1.200000e+00
2.300000000000000e-01	2.300000e-01	1.200000e+00
2.400000000000000e-01	2.400000e-01	1.200000e+00
2.500000000000000e-01	2.500000e-01	1.200000e+00
2.600000000000000e-01	2.600000e-01	1.200000e+00
2.700000000000000e-01	2.700000e-01	1.200000e+00
2.800000000000000e-01	2.800000e-01	1.200000e+00
2.900000000000000e-01	2.900000e-01	1.200000e+00
3.000000000000000e-01	3.000000e-01	1.200000e+00
3.100000000000000e-01	3.100000e-01	1.200000e+00
3.200000000000000e-01	3.200000e-01	1.200000e+00
3.300000000000000e-01	3.300000e-01	1.200000e+00
3.400000000000000e-01	3.400000e-01	1.200000e+00
3.500000000000000e-01	3.500000e-01	1.200000e+00
3.600000000000000e-01	3.600000e-01	1.200000e+00
3.700000000000000e-01	3.700000e-01	1.200000e+00
3.800000000000000e-01	3.800000e-01	1.200000e+00
3.900000000000000e-01	3.900000e-01	1.200000e+00
4.000000000000000e-01	4.000000e-01	1.200000e+00
4.100000000000000e-01	4.100000e-01	1.199775e+00
4.200000000000000e-01	4.200000e-01	1.199075e+00
4.300000000000000e-01	4.300000e-01	1.197859e+00
4.400000000000000e-01	4.400000e-01	1.196079e+00
4.500000000000000e-01	4.500000e-01	1.193676e+00
4.600000000000000e-01	4.600000e-01	1.190580e+00
4.700000000000000e-01	4.700000e-01	1.186707e+00
4.800000000000000e-01	4.800000e-01	1.181950e+00
4.900000000000000e-01	4.900000e-01	1.176174e+00
5.000000000000000e-01	5.000000e-01	1.169200e+00
5.100000000000000e-01	5.100000e-01	1.160787e+00
5.200000000000000e-01	5.200000e-01	1.150596e+00
5.300000000000000e-01	5.300000e-01	1.138113e+00
5.400000000000000e-01	5.400000e-01	1.122506e+00
5.500000000000000e-01	5.500000e-01	1.102239e+00
5.600000000000001e-01	5.600000e-01	1.073803e+00
5.700000000000001e-01	5.700000e-01	1.020424e+00
5.800000000000000e-01	5.800000e-01	1.197867e-01
5.900000000000000e-01	5.900000e-01	9.074315e-02
6.000000000000000e-01	6.000000e-01	7.281692e-02
6.100000000000000e-01	6.100000e-01	5.970992e-02
6.200000000000000e-01	6.200000e-01	4.943579e-02
6.300000000000000e-01	6.300000e-01	4.113765e-02
6.400000000000000e-01	6.400000e-01	3.425515e-02
6.500000000000000e-01	6.500000e-01	2.846828e-02
6.600000000000000e-01	6.600000e-01	2.355989e-02
6.700000000000000e-01	6.700000e-01	1.937417e-02
6.800000000000000e-01	6.800000e-01	1.579529e-02
6.900000000000001e-01	6.900000e-01	1.273448e-02
7.000000000000001e-01	7.000000e-01	1.012201e-02
7.100000000000000e-01	7.100000e-01	7.901904e-03
7.200000000000000e-01	7.200000e-01	6.028516e-03
7.300000000000000e-01	7.300000e-01	4.464021e-03
7.400000000000000e-01	7.400000e-01	3.176690e-03
7.500000000000000e-01	7.500000e-01	2.139610e-03
7.600000000000000e-01	7.600000e-01	1.329728e-03
7.700000000000000e-01	7.700000e-01	7.271280e-04
7.800000000000000e-01	7.800000e-01	3.144704e-04
7.900000000000000e-01	7.900000e-01	7.655381e-05
8.000000000000000e-01	8.000000e-01	-2.832170e-08
8.100000000000001e-01	8.100000e-01	-2.654803e-09
8.200000000000001e-01	8.200000e-01	4.509621e-09
8.300000000000001e-01	8.300000e-01	4.404746e-09
8.400000000000000e-01	8.400000e-01	4.304638e-09
8.500000000000000e-01	8.500000e-01	4.208979e-09
8.600000000000000e-01	8.600000e-01	4.117480e-09
8.700000000000000e-01	8.700000e-01	4.029874e-09
8.800000000000000e-01	8.800000e-01	3.945918e-09
8.900000000000000e-01	8.900000e-01	3.865389e-09
9.000000000000000e-01	9.000000e-01	3.788081e-09
9.100000000000000e-01	9.100000e-01	3.713805e-09
9.200000000000000e-01	9.200000e-01	3.642386e-09
9.300000000000000e-01	9.300000e-01	3.573662e-09
9.400000000000001e-01	9.400000e-01	3.507483e-09
9.500000000000001e-01	9.500000e-01	3.443711e-09
9.600000000000000e-01	9.600000e-01	3.382216e-09
9.700000000000000e-01	9.700000e-01	3.322879e-09
9.800000000000000e-01	9.800000e-01	3.265588e-09
9.900000000000000e-01	9.900000e-01	3.210239e-09
1.000000000000000e+00	1.000000e+00	3.156735e-09
1.010000000000000e+00	1.010000e+00	3.104985e-09
1.020000000000000e+00	1.020000e+00	3.054905e-09
1.030000000000000e+00	1.030000e+00	3.006414e-09
1.040000000000000e+00	1.040000e+00	2.959439e-09
1.050000000000000e+00	1.050000e+00	2.913909e-09
1.060000000000000e+00	1.060000e+00	2.869759e-09
1.070000000000000e+00	1.070000e+00	2.826926e-09
1.080000000000000e+00	1.080000e+00	2.785354e-09
1.090000000000000e+00	1.090000e+00	2.744987e-09
1.100000000000000e+00	1.100000e+00	2.705772e-09
1.110000000000000e+00	1.110000e+00	2.667663e-09
1.120000000000000e+00	1.120000e+00	2.630612e-09
1.130000000000000e+00	1.130000e+00	2.594577e-09
1.140000000000000e+00	1.140000e+00	2.559515e-09
1.150000000000000e+00	1.150000e+00	2.525388e-09
1.160000000000000e+00	1.160000e+00	2.492159e-09
1.170000000000000e+00	1.170000e+00	2.459793e-09
1.180000000000000e+00	1.180000e+00	2.428257e-09
1.190000000000000e+00	1.190000e+00	2.397520e-09
1.200000000000000e+00	1.200000e+00	2.367551e-09
Step Information: Wn=2µ Wp_ratio=1.75  (Step: 4/14)
0.000000000000000e+00	0.000000e+00	1.200000e+00
1.000000000000000e-02	1.000000e-02	1.200000e+00
2.000000000000000e-02	2.000000e-02	1.200000e+00
3.000000000000000e-02	3.000000e-02	1.200000e+00
4.000000000000000e-02	4.000000e-02	1.200000e+00
5.000000000000000e-02	5.000000e-02	1.200000e+00
6.000000000000000e-02	6.000000e-02	1.200000e+00
7.000000000000001e-02	7.000000e-02	1.200000e+00
8.000000000000000e-02	8.000000e-02	1.200000e+00
9.000000000000000e-02	9.000000e-02	1.200000e+00
1.000000000000000e-01	1.000000e-01	1.200000e+00
1.100000000000000e-01	1.100000e-01	1.200000e+00
1.200000000000000e-01	1.200000e-01	1.200000e+00
1.300000000000000e-01	1.300000e-01	1.200000e+00
1.400000000000000e-01	1.400000e-01	1.200000e+00
1.500000000000000e-01	1.500000e-01	1.200000e+00
1.600000000000000e-01	1.600000e-01	1.200000e+00
1.700000000000000e-01	1.700000e-01	1.200000e+00
1.800000000000000e-01	1.800000e-01	1.200000e+00
1.900000000000000e-01	1.900000e-01	1.200000e+00
2.000000000000000e-01	2.000000e-01	1.200000e+00
2.100000000000000e-01	2.100000e-01	1.200000e+00
2.200000000000000e-01	2.200000e-01	1.200000e+00
2.300000000000000e-01	2.300000e-01	1.200000e+00
2.400000000000000e-01	2.400000e-01	1.200000e+00
2.500000000000000e-01	2.500000e-01	1.200000e+00
2.600000000000000e-01	2.600000e-01	1.200000e+00
2.700000000000000e-01	2.700000e-01	1.200000e+00
2.800000000000000e-01	2.800000e-01	1.200000e+00
2.900000000000000e-01	2.900000e-01	1.200000e+00
3.000000000000000e-01	3.000000e-01	1.200000e+00
3.100000000000000e-01	3.100000e-01	1.200000e+00
3.200000000000000e-01	3.200000e-01	1.200000e+00
3.300000000000000e-01	3.300000e-01	1.200000e+00
3.400000000000000e-01	3.400000e-01	1.200000e+00
3.500000000000000e-01	3.500000e-01	1.200000e+00
3.600000000000000e-01	3.600000e-01	1.200000e+00
3.700000000000000e-01	3.700000e-01	1.200000e+00
3.800000000000000e-01	3.800000e-01	1.200000e+00
3.900000000000000e-01	3.900000e-01	1.200000e+00
